 ****** HSPICE -- I-2013.12-SP2-1 64-BIT (Jun 10 2014) win64 ******             
  Copyright (C) 2014 Synopsys, Inc. All Rights Reserved.                        
  Unpublished-rights reserved under US copyright laws.
  This program is protected by law and is subject to the
  terms and conditions of the license agreement from Synopsys.
  Use of this program is your acceptance to be bound by the
  license agreement. HSPICE is the trademark of Synopsys, Inc.
  Input File: U:\MATLAB\ProjectQ2\Q2netlist.sp                                  
  Command line options: -i U:\MATLAB\ProjectQ2\Q2netlist.sp -o U:\MATLAB\ProjectQ2\Q2netlist
  lic:  
  lic: FLEXlm: v10.9.8 
  lic: USER:   yasith               HOSTNAME: C107-07 
  lic: HOSTID: bc5ff4456b75         PID:      8176 
  lic: Using FLEXlm license file: 
  lic: 27010@synopsys.engr.colostate.edu 
  lic: Checkout 1 hspice 
  lic: License/Maintenance for hspice will expire on 25-sep-2017/2016.06 
  lic: 1(in_use)/50(total) FLOATING license(s) on SERVER 27010@synopsys.engr.col
 ostate.edu 
  lic:   
  **warning** (U:\MATLAB\ProjectQ2\Q2netlist.sp:222) Capacitance value for element cctl1tl21 is   -1.809E-14. Capacitance should be a positive, non-zero value.
  
      
 *****************************************************************
 ******  option summary
 ******
 runlvl  = 3         bypass  = 2         
 **info** dc convergence successful at Newton-Raphson method 
1****** HSPICE -- I-2013.12-SP2-1 64-BIT (Jun 10 2014) win64 ******             
 ******  
 *q1 project

 ****** operating point information tnom=  25.000 temp=  25.000 ******
 ****** operating point status is all       simulation time is     0.     
    node    =voltage      node    =voltage      node    =voltage

 +0:1       =   1.0000  0:2       = 706.0075m 0:3       = 705.5821m
 +0:4       =   0.      0:5       =   0.      0:6       =   1.0000 
 +0:7       = 706.0075m 0:8       = 705.5821m 0:9       = 705.9467m
 +0:10      = 705.9467m 0:11      = 705.9467m 0:12      = 705.9467m
 +0:13      = 705.8859m 0:14      = 705.8859m 0:15      = 705.8859m
 +0:16      = 705.8859m 0:17      = 705.8252m 0:18      = 705.8252m
 +0:19      = 705.8252m 0:20      = 705.8252m 0:21      = 705.7644m
 +0:22      = 705.7644m 0:23      = 705.7644m 0:24      = 705.7644m
 +0:25      = 705.7036m 0:26      = 705.7036m 0:27      = 705.7036m
 +0:28      = 705.7036m 0:29      = 705.6428m 0:30      = 705.6428m
 +0:31      = 705.6428m 0:32      = 705.6428m 0:33      = 705.5821m
 +0:34      = 705.5821m 0:35      = 705.5821m 0:36      =   0.     
 +0:37      =   0.      0:38      =   0.      0:39      =   0.     
 +0:40      =   0.      0:41      =   0.      0:42      =   0.     
 +0:43      =   0.      0:44      =   0.      0:45      =   0.     
 +0:46      =   0.      0:47      =   0.      0:48      =   0.     
 +0:49      =   0.      0:50      =   0.      0:51      =   0.     
 +0:52      =   0.      0:53      =   0.      0:54      =   0.     
 +0:55      =   0.      0:56      =   0.      0:57      =   0.     
 +0:58      =   0.      0:59      =   0.      0:60      =   0.     
 +0:61      =   0.      0:62      =   0.      0:63      = 705.9467m
 +0:64      = 705.9467m 0:65      = 705.9467m 0:66      = 705.9467m
 +0:67      = 705.8859m 0:68      = 705.8859m 0:69      = 705.8859m
 +0:70      = 705.8859m 0:71      = 705.8252m 0:72      = 705.8252m
 +0:73      = 705.8252m 0:74      = 705.8252m 0:75      = 705.7644m
 +0:76      = 705.7644m 0:77      = 705.7644m 0:78      = 705.7644m
 +0:79      = 705.7036m 0:80      = 705.7036m 0:81      = 705.7036m
 +0:82      = 705.7036m 0:83      = 705.6428m 0:84      = 705.6428m
 +0:85      = 705.6428m 0:86      = 705.6428m 0:87      = 705.5821m
 +0:88      = 705.5821m 0:89      = 705.5821m


 **** voltage sources

 subckt                        
 element  0:v1       0:v2      
  volts      1.0000     1.0000 
  current   -5.8799m   -5.8799m
  power      5.8799m    5.8799m

     total voltage source power dissipation=   11.7597m       watts



 **** resistors

 subckt                                                                    
 element  0:r1       0:r2       0:r3       0:r4       0:r5       0:r6      
  r value   50.0000   120.0000    50.0000   120.0000    50.0000   120.0000 
  v drop   293.9925m  705.5821m    0.         0.       293.9925m  705.5821m
  current    5.8799m    5.8799m    0.         0.         5.8799m    5.8799m
  power      1.7286m    4.1487m    0.         0.         1.7286m    4.1487m

 subckt                                                                    
 element  0:rtl11    0:rtl12    0:rtl13    0:rtl14    0:rtl15    0:rtl16   
  r value   10.3357m   10.3357m   10.3357m   10.3357m   10.3357m   10.3357m
  v drop    60.7724u   60.7724u   60.7724u   60.7724u   60.7724u   60.7724u
  current    5.8799m    5.8799m    5.8799m    5.8799m    5.8799m    5.8799m
  power    357.3328n  357.3328n  357.3328n  357.3328n  357.3328n  357.3328n

 subckt                                                                    
 element  0:rtl17    0:rtl21    0:rtl22    0:rtl23    0:rtl24    0:rtl25   
  r value   10.3357m   10.3357m   10.3357m   10.3357m   10.3357m   10.3357m
  v drop    60.7724u    0.         0.         0.         0.         0.     
  current    5.8799m    0.         0.         0.         0.         0.     
  power    357.3328n    0.         0.         0.         0.         0.     

 subckt                                                                    
 element  0:rtl26    0:rtl27    0:rtl31    0:rtl32    0:rtl33    0:rtl34   
  r value   10.3357m   10.3357m   10.3357m   10.3357m   10.3357m   10.3357m
  v drop     0.         0.        60.7724u   60.7724u   60.7724u   60.7724u
  current    0.         0.         5.8799m    5.8799m    5.8799m    5.8799m
  power      0.         0.       357.3328n  357.3328n  357.3328n  357.3328n

 subckt                                   
 element  0:rtl35    0:rtl36    0:rtl37   
  r value   10.3357m   10.3357m   10.3357m
  v drop    60.7724u   60.7724u   60.7724u
  current    5.8799m    5.8799m    5.8799m
  power    357.3328n  357.3328n  357.3328n


 **** inductors

 subckt                                                                    
 element  0:ltl11    0:ltl12    0:ltl13    0:ltl14    0:ltl15    0:ltl16   
  l value  425.7643p  425.7643p  425.7643p  425.7643p  425.7643p  425.7643p
  v drop     0.         0.         0.         0.         0.         0.     
  current    0.         0.         0.         0.         0.         0.     
  power      0.         0.         0.         0.         0.         0.     

 subckt                                                                    
 element  0:ltl17    0:ltl21    0:ltl22    0:ltl23    0:ltl24    0:ltl25   
  l value  425.7643p  400.1286p  400.1286p  400.1286p  400.1286p  400.1286p
  v drop     0.         0.         0.         0.         0.         0.     
  current    0.         0.         0.         0.         0.         0.     
  power      0.         0.         0.         0.         0.         0.     

 subckt                                                                    
 element  0:ltl26    0:ltl27    0:ltl31    0:ltl32    0:ltl33    0:ltl34   
  l value  400.1286p  400.1286p  399.3357p  399.3357p  399.3357p  399.3357p
  v drop     0.         0.         0.         0.         0.         0.     
  current    0.         0.         0.         0.         0.         0.     
  power      0.         0.         0.         0.         0.         0.     

 subckt                                   
 element  0:ltl35    0:ltl36    0:ltl37   
  l value  399.3357p  399.3357p  399.3357p
  v drop     0.         0.         0.     
  current    0.         0.         0.     
  power      0.         0.         0.     


 **** voltage-controlled voltage sources


 subckt                                                                    
 element  0:etl11    0:etl12    0:etl13    0:etl14    0:etl15    0:etl16   
  volts      0.         0.         0.         0.         0.         0.     
  current    5.8799m    5.8799m    5.8799m    5.8799m    5.8799m    5.8799m



 subckt                                                                    
 element  0:etl17    0:etl18    0:etl19    0:etl110   0:etl111   0:etl112  
  volts      0.         0.         0.         0.         0.         0.     
  current    5.8799m    5.8799m    5.8799m    5.8799m    5.8799m    5.8799m



 subckt                                                                    
 element  0:etl113   0:etl114   0:etl21    0:etl22    0:etl23    0:etl24   
  volts      0.         0.         0.         0.         0.         0.     
  current    5.8799m    5.8799m    0.         0.         0.         0.     



 subckt                                                                    
 element  0:etl25    0:etl26    0:etl27    0:etl28    0:etl29    0:etl210  
  volts      0.         0.         0.         0.         0.         0.     
  current    0.         0.         0.         0.         0.         0.     



 subckt                                                                    
 element  0:etl211   0:etl212   0:etl213   0:etl214   0:etl31    0:etl32   
  volts      0.         0.         0.         0.         0.         0.     
  current    0.         0.         0.         0.         5.8799m    5.8799m



 subckt                                                                    
 element  0:etl33    0:etl34    0:etl35    0:etl36    0:etl37    0:etl38   
  volts      0.         0.         0.         0.         0.         0.     
  current    5.8799m    5.8799m    5.8799m    5.8799m    5.8799m    5.8799m



 subckt                                                                    
 element  0:etl39    0:etl310   0:etl311   0:etl312   0:etl313   0:etl314  
  volts      0.         0.         0.         0.         0.         0.     
  current    5.8799m    5.8799m    5.8799m    5.8799m    5.8799m    5.8799m




          ***** job concluded
1****** HSPICE -- I-2013.12-SP2-1 64-BIT (Jun 10 2014) win64 ******             
 ******  
 *q1 project

 ****** job statistics summary tnom=  25.000 temp=  25.000 ******

  ******  HSPICE Threads Information  ******

  Command Line Threads Count :     1
  Available CPU Count        :     8
  Actual Threads Count       :     1


  ******  Circuit Statistics  ******
  # nodes       =      90 # elements   =     134
  # resistors   =      27 # capacitors =      42 # inductors   =      21
  # mutual_inds =       0 # vccs       =       0 # vcvs        =      42
  # cccs        =       0 # ccvs       =       0 # volt_srcs   =       2
  # curr_srcs   =       0 # diodes     =       0 # bjts        =       0
  # jfets       =       0 # mosfets    =       0 # U elements  =       0
  # T elements  =       0 # W elements =       0 # B elements  =       0
  # S elements  =       0 # P elements =       0 # va device   =       0
  # vector_srcs =       0 # N elements =       0


  ******  Runtime Statistics (seconds)  ******

  analysis           time    # points   tot. iter  conv.iter
  op point           0.03           1           4
  ac analysis        0.12         600         600
  readin             0.02
  errchk             0.00
  setup              0.00
  output             0.00


           peak memory used         61.80 megabytes
           total cpu time            0.17 seconds
           total elapsed time        0.90 seconds
           job started at     21:57:04 12/07/2016
           job ended   at     21:57:05 12/07/2016


  lic: Release hspice token(s) 
 lic: total license checkout elapse time:        0.66(s)
